
**** 05/26/24 11:25:29 ***** PSpice 23.1.0 (6 March 2024) ***** ID# 0 ********

 ** Profile: "SCHEMATIC1-Transient Simulation"  [ C:\Users\Lenovo\AppData\Roaming\SPB_Data\cdssetup\workspace\projects\final grade ca


 ****     CIRCUIT DESCRIPTION


******************************************************************************




** Creating circuit file "Transient Simulation.cir" 
** WARNING: THIS AUTOMATICALLY GENERATED FILE MAY BE OVERWRITTEN BY SUBSEQUENT SIMULATIONS

*Libraries: 
* Profile Libraries :
* Local Libraries :
* From [PSPICE NETLIST] section of C:\Users\Lenovo\AppData\Roaming\SPB_Data\cdssetup\OrCAD_PSpice\23.1.0\PSpice.ini file:
.lib "nom.lib" 

*Analysis directives: 
.TRAN  0 20m 0 20u 
.OPTIONS ADVCONV
.PROBE64 V(alias(*)) I(alias(*)) W(alias(*)) D(alias(*)) NOISE(alias(*)) 
.INC "..\SCHEMATIC1.net" 



**** INCLUDING SCHEMATIC1.net ****
* source FINAL GRADE CAD PROJECT
.EXTERNAL OUTPUT Vcc
R_R13         N36511 N36339 R_R13 2.43K TC=0,0 
.model        R_R13 RES R=1 DEV=1% TC1=0 TC2=0
R_R8         N36491 N36087  1.43K TC=0,0 
R_R9         N36087 N36097 R_R9 301 TC=0,0 
.model        R_R9 RES R=1 DEV=1% TC1=0 TC2=0
X_U1         N36555 N36167 VCC 0 N36167 uA741
R_R7         N36483 N36491 R_R7 1k TC=0,0 
.model        R_R7 RES R=1 DEV=1% TC1=0 TC2=0
V_V1         VCC 0 14V
R_R2         VCC N36689 R_R2 10.5k TC=0,0 
.model        R_R2 RES R=1 DEV=1% TC1=0 TC2=0
R_R4         N36823 0 R_R4 1.54K TC=0,0 
.model        R_R4 RES R=1 DEV=1% TC1=0 TC2=0
R_R6         N361310 N36179 R_R6 301 TC=0,0 
.model        R_R6 RES R=1 DEV=1% TC1=0 TC2=0
R_R17         N35977 N37147  6650 TC=0,0 
R_Relay         N37039 VCC  480 TC=0,0 
R_R12         N36339 VCC R_R12 4.12K TC=0,0 
.model        R_R12 RES R=1 DEV=1% TC1=0 TC2=0
X_U3         N36689 N36483 VCC 0 N36483 uA741
R_R16         OUT VCC  590 TC=0,0 
X_U2         N36179 N36491 VCC 0 N36087 uA741
R_Rsesnsor         N35941 0  {Rs} TC=0,0 
D_led         OUT N37039 LS_3336-TYP 
R_R18         VCC N35941  75k TC=0,0 
R_R5         N36167 N361310 R_R5 287 TC=0,0 
.model        R_R5 RES R=1 DEV=1% TC1=0 TC2=0
V_V3         N36555 0  
+PULSE 0 14 0 10m 10m 0 20m
R_R11         N35971 N35977  1k TC=0,0 
Q_Q2         N37039 N37147 0 Q2N2222A/ZTX 
R_R14         N36511 N36641 R_R14 4.75K TC=0,0 
.model        R_R14 RES R=1 DEV=1% TC1=0 TC2=0
X_U4         N35971 N36511 VCC 0 N35977 uA741
R_R15         N36641 0 R_R15 2.8K TC=0,0 
.model        R_R15 RES R=1 DEV=1% TC1=0 TC2=0
R_R3         N36689 N36823 R_R3 1.96K TC=0,0 
.model        R_R3 RES R=1 DEV=1% TC1=0 TC2=0
R_R10         N36097 N35971 R_R10 274 TC=0,0 
.model        R_R10 RES R=1 DEV=1% TC1=0 TC2=0
.PARAM  rs=75k

**** RESUMING "Transient Simulation.cir" ****
.END

**** 05/26/24 11:25:29 ***** PSpice 23.1.0 (6 March 2024) ***** ID# 0 ********

 ** Profile: "SCHEMATIC1-Transient Simulation"  [ C:\Users\Lenovo\AppData\Roaming\SPB_Data\cdssetup\workspace\projects\final grade ca


 ****     Diode MODEL PARAMETERS


******************************************************************************




               LS_3336-TYP     X_U1.dx         X_U1.dy         X_U3.dx         
          IS  980.130000E-24  800.000000E-18  800.000000E-18  800.000000E-18 
           N    1.6749                                                       
         IKF    7.140200E-03                                                 
          RS    1.6217          1               1.000000E-03    1            
         CJO                                   10.000000E-12                 


               X_U3.dy         X_U2.dx         X_U2.dy         X_U4.dx         
          IS  800.000000E-18  800.000000E-18  800.000000E-18  800.000000E-18 
          RS    1.000000E-03    1               1.000000E-03    1            
         CJO   10.000000E-12                   10.000000E-12                 


               X_U4.dy         
          IS  800.000000E-18 
          RS    1.000000E-03 
         CJO   10.000000E-12 


**** 05/26/24 11:25:29 ***** PSpice 23.1.0 (6 March 2024) ***** ID# 0 ********

 ** Profile: "SCHEMATIC1-Transient Simulation"  [ C:\Users\Lenovo\AppData\Roaming\SPB_Data\cdssetup\workspace\projects\final grade ca


 ****     BJT MODEL PARAMETERS


******************************************************************************




               Q2N2222A/ZTX    X_U1.qx         X_U3.qx         X_U2.qx         
               NPN             NPN             NPN             NPN             
       LEVEL    1               1               1               1            
          IS   30.611000E-15  800.000000E-18  800.000000E-18  800.000000E-18 
          BF  220              93.75           93.75           93.75         
          NF    1.00124         1               1               1            
         VAF  104                                                            
         IKF     .52                                                         
         ISE    7.500000E-15                                                 
          NE    1.41                                                         
          BR    4               1               1               1            
          NR    1.005           1               1               1            
         VAR   28                                                            
         IKR     .24                                                         
         ISC   10.652500E-12                                                 
          NC    1.3728                                                       
         ISS    0               0               0               0            
          RB     .13                                                         
          RE     .22            0               0               0            
          RC     .12            0               0               0            
         CJE   27.010000E-12    0               0               0            
         VJE     .75             .75             .75             .75         
         CJC    9.120000E-12    0               0               0            
         VJC     .4089           .75             .75             .75         
         MJC     .3508           .33             .33             .33         
        XCJC    1               1               1               1            
         CJS    0               0               0               0            
         VJS     .75             .75             .75             .75         
          TF  325.000000E-12                                                 
          TR  100.000000E-09                                                 
          KF    0               0               0               0            
          AF    1               1               1               1            
          CN    2.42            2.42            2.42            2.42         
           D     .87             .87             .87             .87         


               X_U4.qx         
               NPN             
       LEVEL    1            
          IS  800.000000E-18 
          BF   93.75         
          NF    1            
          BR    1            
          NR    1            
         ISS    0            
          RE    0            
          RC    0            
         CJE    0            
         VJE     .75         
         CJC    0            
         VJC     .75         
         MJC     .33         
        XCJC    1            
         CJS    0            
         VJS     .75         
          KF    0            
          AF    1            
          CN    2.42         
           D     .87         


**** 05/26/24 11:25:29 ***** PSpice 23.1.0 (6 March 2024) ***** ID# 0 ********

 ** Profile: "SCHEMATIC1-Transient Simulation"  [ C:\Users\Lenovo\AppData\Roaming\SPB_Data\cdssetup\workspace\projects\final grade ca


 ****     Resistor MODEL PARAMETERS


******************************************************************************




               R_R13           R_R9            R_R7            R_R2            
           R    1               1               1               1            


               R_R4            R_R6            R_R12           R_R5            
           R    1               1               1               1            


               R_R14           R_R15           R_R3            R_R10           
           R    1               1               1               1            


**** 05/26/24 11:25:29 ***** PSpice 23.1.0 (6 March 2024) ***** ID# 0 ********

 ** Profile: "SCHEMATIC1-Transient Simulation"  [ C:\Users\Lenovo\AppData\Roaming\SPB_Data\cdssetup\workspace\projects\final grade ca


 ****     INITIAL TRANSIENT SOLUTION       TEMPERATURE =   27.000 DEG C


******************************************************************************



 NODE   VOLTAGE     NODE   VOLTAGE     NODE   VOLTAGE     NODE   VOLTAGE


(  OUT)   14.0000  (  VCC)   14.0000  (N35941)    7.0000 (N35971)     .1843     

(N35977)     .1837 (N36087)     .1846 (N36097)     .1845 (N36167)     .1837     

(N36179)     .1837 (N36339)    9.9089 (N36483)    3.4999 (N36491)    2.1355     

(N36511)    7.4959 (N36555)    0.0000 (N36641)    2.7799 (N36689)    3.4998     

(N36823)    1.5399 (N37039)   14.0000 (N37147)     .1837 (X_U1.6)    1.4330     

(X_U1.7)   -1.8465 (X_U1.8)   -1.8465 (X_U1.9)    0.0000 (X_U2.6)    1.4554     

(X_U2.7)   -1.8456 (X_U2.8)   -1.8456 (X_U2.9)    0.0000 (X_U3.6) 310.3E-06     

(X_U3.7)    3.5682 (X_U3.8)    3.5682 (X_U3.9)    0.0000 (X_U4.6)    1.4988     

(X_U4.7)   -1.8465 (X_U4.8)   -1.8465 (X_U4.9)    0.0000 (N361310)     .1837    

(X_U1.10)    -.4538                   (X_U1.11)   13.9240                       

(X_U1.12)   14.0000                   (X_U1.13)    -.4270                       

(X_U1.14)    -.4537                   (X_U1.53)   13.0000                       

(X_U1.54)    1.0000                   (X_U1.90)  -40.6040                       

(X_U1.91)   40.0000                   (X_U1.92)  -40.0000                       

(X_U1.99)    7.0000                   (X_U2.10)    1.4974                       

(X_U2.11)   13.9230                   (X_U2.12)   14.0000                       

(X_U2.13)    1.5244                   (X_U2.14)    1.4974                       

(X_U2.53)   13.0000                   (X_U2.54)    1.0000                       

(X_U2.90)  -40.6050                   (X_U2.91)   40.0000                       

(X_U2.92)  -40.0000                   (X_U2.99)    7.0000                       

(X_U3.10)    2.8929                   (X_U3.11)   13.9610                       

(X_U3.12)   13.9610                   (X_U3.13)    2.9066                       

(X_U3.14)    2.9065                   (X_U3.53)   13.0000                       

(X_U3.54)    1.0000                   (X_U3.90)    1.3645                       

(X_U3.91)   40.0000                   (X_U3.92)  -40.0000                       

(X_U3.99)    7.0000                   (X_U4.10)    6.8563                       

(X_U4.11)   13.9200                   (X_U4.12)   14.0000                       

(X_U4.13)    6.8841                   (X_U4.14)    6.8563                       

(X_U4.53)   13.0000                   (X_U4.54)    1.0000                       

(X_U4.90)  -40.6060                   (X_U4.91)   40.0000                       

(X_U4.92)  -40.0000                   (X_U4.99)    7.0000                   




    VOLTAGE SOURCE CURRENTS
    NAME         CURRENT

    V_V1        -5.229E-03
    V_V3        -3.403E-10
    X_U1.vb      1.433E-05
    X_U1.vc      1.282E-11
    X_U1.ve     -4.060E-02
    X_U1.vlim   -4.060E-02
    X_U1.vlp    -8.060E-11
    X_U1.vln     1.113E-05
    X_U3.vb      3.103E-09
    X_U3.vc      9.501E-12
    X_U3.ve      2.364E-12
    X_U3.vlim    1.365E-03
    X_U3.vlp    -3.864E-11
    X_U3.vln    -4.137E-11
    X_U2.vb      1.455E-05
    X_U2.vc      1.282E-11
    X_U2.ve     -3.924E-02
    X_U2.vlim   -4.061E-02
    X_U2.vlp    -8.061E-11
    X_U2.vln     1.151E-05
    X_U4.vb      1.499E-05
    X_U4.vc      1.282E-11
    X_U4.ve     -4.061E-02
    X_U4.vlim   -4.061E-02
    X_U4.vlp    -8.061E-11
    X_U4.vln     1.183E-05

    TOTAL POWER DISSIPATION   1.92E-01  WATTS



          JOB CONCLUDED

**** 05/26/24 11:25:29 ***** PSpice 23.1.0 (6 March 2024) ***** ID# 0 ********

 ** Profile: "SCHEMATIC1-Transient Simulation"  [ C:\Users\Lenovo\AppData\Roaming\SPB_Data\cdssetup\workspace\projects\final grade ca


 ****     JOB STATISTICS SUMMARY


******************************************************************************



  Total job time (using Solver 1)   =         .81
